
T91F8 000:059 SEGGER J-Link V4.76d Log File (0000ms, 0058ms total)
T91F8 000:059 DLL Compiled: Sep 13 2013 16:35:06 (0000ms, 0058ms total)
T91F8 000:059 Logging started @ 2017-11-24 23:54 (0000ms, 0058ms total)
T91F8 000:059 JLINK_SetWarnOutHandler(...) (0000ms, 0058ms total)
T91F8 000:059 JLINK_OpenEx(...)
Firmware: J-Link ARM V8 compiled Nov 28 2014 13:44:46
Hardware: V8.00
S/N: 99991999
Feature(s): RDI,FlashDL,FlashBP,JFlash,GDBFULL  returns O.K. (0015ms, 0073ms total)
T91F8 000:074 JLINK_SetErrorOutHandler(...) (0000ms, 0073ms total)
T91F8 000:074 JLINK_ExecCommand("ProjectFile = "E:\硬件\3.0CAR螺旋可用+GPS可用\CAR螺旋可用+GPS可用\CAR(yyn调试成功) - 小车接收端\USER\JLinkSettings.ini"", ...)  returns 0x00 (0000ms, 0073ms total)
T91F8 000:079 JLINK_ExecCommand("Device = STM32F103RC", ...)
                JLINK_AddMirrorAreaEx(Addr = 0x00000000, Size = 0x00000000) (0000ms, 0000ms total)
              Device "STM32F103RC" selected (256 KB flash, 48 KB RAM).  returns 0x00 (0007ms, 0080ms total)
T91F8 000:086 JLINK_ExecCommand("DisableConnectionTimeout", ...)  returns 0x01 (0000ms, 0080ms total)
T91F8 000:086 JLINK_GetHardwareVersion()  returns 0x13880 (0000ms, 0080ms total)
T91F8 000:086 JLINK_GetDLLVersion()  returns 47604 (0000ms, 0080ms total)
T91F8 000:086 JLINK_GetFirmwareString(...) (0000ms, 0080ms total)
T91F8 000:105 JLINK_GetDLLVersion()  returns 47604 (0000ms, 0080ms total)
T91F8 000:105 JLINK_GetCompileDateTime() (0000ms, 0080ms total)
T91F8 000:108 JLINK_GetFirmwareString(...) (0000ms, 0080ms total)
T91F8 000:112 JLINK_GetHardwareVersion()  returns 0x13880 (0000ms, 0080ms total)
T91F8 000:124 JLINK_TIF_Select(JLINKARM_TIF_JTAG)  returns 0x00 (0000ms, 0080ms total)
T91F8 000:124 JLINK_SetSpeed(10000) (0001ms, 0081ms total)
T91F8 000:125 JLINK_GetIdData(...) >0x2F8 JTAG>TotalIRLen = 9, IRPrint = 0x0011 >0x30 JTAG> >0x210 JTAG> >0x40 JTAG> >0x40 JTAG> >0x40 JTAG> >0x30 JTAG> >0x40 JTAG> >0x40 JTAG> >0x40 JTAG> >0x40 JTAG> >0x40 JTAG> >0x40 JTAG> >0x40 JTAG> >0x40 JTAG> >0x2F8 JTAG>TotalIRLen = 9, IRPrint = 0x0011 >0x30 JTAG> >0x210 JTAG> >0x70 JTAG> >0x40 JTAG> >0x40 JTAG> >0x40 JTAG> >0x50 JTAG> >0x80 JTAG> >0x40 JTAG> >0x30 JTAG> >0x40 JTAG> >0x40 JTAG> >0x30 JTAG> >0x40 JTAG> >0x50 JTAG>
Found Cortex-M3 r1p1, Little endian. -- CPU_WriteMem(4 bytes @ 0xE0002000) -- CPU_ReadMem(4 bytes @ 0xE000EDF0) -- CPU_ReadMem(4 bytes @ 0xE0002000)FPUnit: 6 code (BP) slots and 2 literal slots -- CPU_ReadMem(4 bytes @ 0xE000EDFC) -- CPU_ReadMem(4 bytes @ 0xE0001000) -- CPU_WriteMem(4 bytes @ 0xE0001000) -- CPU_ReadMem(4 bytes @ 0xE00FF010)TPIU fitted. -- CPU_ReadMem(4 bytes @ 0xE00FF014)ETM fitted. -- CPU_ReadMem(4 bytes @ 0xE00FF018) ScanLen=9 NumDevices=2 aId[0]=0x3BA00477 aIrRead[0]=0 aScanLen[0]=0
 aScanRead[0]=0 (0047ms, 0128ms total)
T91F8 000:172 JLINK_JTAG_GetDeviceID(DeviceIndex = 0)  returns 0x3BA00477 (0000ms, 0128ms total)
T91F8 000:172 JLINK_JTAG_GetDeviceInfo(DeviceIndex = 0)  returns 0x00 (0000ms, 0128ms total)
T91F8 000:172 JLINK_JTAG_GetDeviceID(DeviceIndex = 1)  returns 0x6414041 (0000ms, 0128ms total)
T91F8 000:172 JLINK_JTAG_GetDeviceInfo(DeviceIndex = 1)  returns 0x00 (0000ms, 0128ms total)
T91F8 000:172 JLINK_GetDeviceFamily()  returns 3 (0000ms, 0128ms total)
T91F8 000:175 JLINK_ReadMem (0xE00FFFF0, 0x0010 Bytes, ...) -- CPU is running -- CPU_ReadMem(16 bytes @ 0xE00FFFF0) -- Data:  0D 00 00 00 10 00 00 00 05 00 00 00 B1 00 00 00  returns 0x00 (0001ms, 0129ms total)
T91F8 000:176 JLINK_ReadMem (0xE00FFFD0, 0x0020 Bytes, ...) -- CPU is running -- CPU_ReadMem(32 bytes @ 0xE00FFFD0) -- Data:  00 00 00 00 00 00 00 00 00 00 00 00 00 00 00 00 ...  returns 0x00 (0001ms, 0130ms total)
T91F8 000:177 JLINK_ReadMem (0xE00FF000, 0x0018 Bytes, ...) -- CPU is running -- CPU_ReadMem(24 bytes @ 0xE00FF000) -- Data:  03 F0 F0 FF 03 20 F0 FF 03 30 F0 FF 03 10 F0 FF ...  returns 0x00 (0000ms, 0130ms total)
T91F8 000:177 JLINK_ReadMemU32(0xE000ED00, 0x0001 Items, ...) -- CPU is running -- CPU_ReadMem(4 bytes @ 0xE000ED00) -- Data:  31 C2 1F 41  returns 0x01 (0001ms, 0131ms total)
T91F8 000:178 JLINK_SetResetType(JLINKARM_RESET_TYPE_NORMAL)  returns JLINKARM_RESET_TYPE_NORMAL (0000ms, 0131ms total)
T91F8 000:178 JLINK_Reset() >0x80 JTAG> >0x40 JTAG> >0x30 JTAG> >0x40 JTAG> >0x40 JTAG> >0x30 JTAG> >0x40 JTAG> >0x50 JTAG>Found Cortex-M3 r1p1, Little endian. -- CPU is running -- CPU_WriteMem(4 bytes @ 0xE000EDF0) -- CPU is running -- CPU_WriteMem(4 bytes @ 0xE000EDFC) -- CPU is running -- CPU_WriteMem(4 bytes @ 0xE000ED0C) -- CPU is running -- CPU_ReadMem(4 bytes @ 0xE000EDF0) -- CPU is running -- CPU_ReadMem(4 bytes @ 0xE000EDF0) -- CPU is running -- CPU_WriteMem(4 bytes @ 0xE000EDF0)
 -- CPU is running -- CPU_WriteMem(4 bytes @ 0xE000EDFC) -- CPU is running -- CPU_ReadMem(4 bytes @ 0xE000EDF0) >0x80 JTAG> >0x40 JTAG> >0x30 JTAG> >0x40 JTAG> >0x50 JTAG> >0x40 JTAG> -- CPU_WriteMem(4 bytes @ 0xE000EDFC) -- CPU_WriteMem(4 bytes @ 0xE0001028) -- CPU_WriteMem(4 bytes @ 0xE0001038) -- CPU_WriteMem(4 bytes @ 0xE0001048) -- CPU_WriteMem(4 bytes @ 0xE0001058) -- CPU_WriteMem(4 bytes @ 0xE0002000) (0036ms, 0167ms total)
T91F8 000:214 JLINK_Halt()  returns 0x00 (0000ms, 0167ms total)
T91F8 000:214 JLINK_IsHalted()  returns TRUE (0000ms, 0167ms total)
T91F8 000:214 JLINK_ReadMemU32(0xE000EDF0, 0x0001 Items, ...) -- CPU_ReadMem(4 bytes @ 0xE000EDF0) -- Data:  03 00 03 00  returns 0x01 (0000ms, 0167ms total)
T91F8 000:214 JLINK_WriteU32(0xE000EDF0, 0xA05F0003) -- CPU_WriteMem(4 bytes @ 0xE000EDF0)  returns 0x00 (0001ms, 0168ms total)
T91F8 000:215 JLINK_WriteU32(0xE000EDFC, 0x01000000) -- CPU_WriteMem(4 bytes @ 0xE000EDFC)  returns 0x00 (0001ms, 0169ms total)
T91F8 000:230 JLINK_GetHWStatus(...)  returns 0x00 (0000ms, 0169ms total)
T91F8 000:239 JLINK_GetNumBPUnits(Type = 0xFFFFFF00)  returns 0x00 (0000ms, 0169ms total)
T91F8 000:239 JLINK_GetNumBPUnits(Type = 0xF0)  returns 0x2000 (0000ms, 0169ms total)
T91F8 000:240 JLINK_GetNumWPUnits()  returns 0x00 (0000ms, 0169ms total)
T91F8 000:248 JLINK_GetSpeed()  returns 0x2580 (0000ms, 0169ms total)
T91F8 000:253 JLINK_ReadMemU32(0xE000E004, 0x0001 Items, ...) -- CPU_ReadMem(4 bytes @ 0xE000E004) -- Data:  01 00 00 00  returns 0x01 (0000ms, 0169ms total)
T91F8 000:253 JLINK_ReadMemU32(0xE000E004, 0x0001 Items, ...) -- CPU_ReadMem(4 bytes @ 0xE000E004) -- Data:  01 00 00 00  returns 0x01 (0001ms, 0170ms total)
T91F8 000:254 JLINK_WriteMem(0xE0001000, 0x001C Bytes, ...) -- Data:  01 00 00 00 00 00 00 00 00 00 00 00 00 00 00 00 ... -- CPU_WriteMem(28 bytes @ 0xE0001000)  returns 0x1C (0001ms, 0171ms total)
T91F8 000:255 JLINK_ReadMem (0xE0001000, 0x001C Bytes, ...) -- CPU_ReadMem(28 bytes @ 0xE0001000) -- Data:  01 00 00 40 00 00 00 00 00 00 00 00 00 00 00 00 ...  returns 0x00 (0001ms, 0172ms total)
T91F8 000:256 JLINK_Halt()  returns 0x00 (0000ms, 0172ms total)
T91F8 000:256 JLINK_IsHalted()  returns TRUE (0000ms, 0172ms total)
T91F8 000:259 JLINK_WriteMem(0x20000000, 0x0164 Bytes, ...) -- Data:  00 BE 0A E0 0D 78 2D 06 68 40 08 24 40 00 00 D3 ... -- CPU_WriteMem(356 bytes @ 0x20000000)  returns 0x164 (0003ms, 0175ms total)
T91F8 000:262 JLINK_WriteReg(R0, 0x08000000)  returns 0x00 (0000ms, 0175ms total)
T91F8 000:262 JLINK_WriteReg(R1, 0x007A1200)  returns 0x00 (0000ms, 0175ms total)
T91F8 000:262 JLINK_WriteReg(R2, 0x00000001)  returns 0x00 (0000ms, 0175ms total)
T91F8 000:262 JLINK_WriteReg(R3, 0x00000000)  returns 0x00 (0000ms, 0175ms total)
T91F8 000:262 JLINK_WriteReg(R4, 0x00000000)  returns 0x00 (0000ms, 0175ms total)
T91F8 000:262 JLINK_WriteReg(R5, 0x00000000)  returns 0x00 (0000ms, 0175ms total)
T91F8 000:262 JLINK_WriteReg(R6, 0x00000000)  returns 0x00 (0000ms, 0175ms total)
T91F8 000:262 JLINK_WriteReg(R7, 0x00000000)  returns 0x00 (0000ms, 0175ms total)
T91F8 000:262 JLINK_WriteReg(R8, 0x00000000)  returns 0x00 (0000ms, 0175ms total)
T91F8 000:262 JLINK_WriteReg(R9, 0x20000160)  returns 0x00 (0000ms, 0175ms total)
T91F8 000:262 JLINK_WriteReg(R10, 0x00000000)  returns 0x00 (0000ms, 0175ms total)
T91F8 000:262 JLINK_WriteReg(R11, 0x00000000)  returns 0x00 (0000ms, 0175ms total)
T91F8 000:262 JLINK_WriteReg(R12, 0x00000000)  returns 0x00 (0000ms, 0175ms total)
T91F8 000:262 JLINK_WriteReg(R13 (SP), 0x20000800)  returns 0x00 (0000ms, 0175ms total)
T91F8 000:262 JLINK_WriteReg(R14, 0x20000001)  returns 0x00 (0000ms, 0175ms total)
T91F8 000:262 JLINK_WriteReg(R15 (PC), 0x20000038)  returns 0x00 (0000ms, 0175ms total)
T91F8 000:262 JLINK_WriteReg(XPSR, 0x01000000)  returns 0x00 (0000ms, 0175ms total)
T91F8 000:262 JLINK_WriteReg(MSP, 0x20000800)  returns 0x00 (0000ms, 0175ms total)
T91F8 000:262 JLINK_WriteReg(PSP, 0x20000800)  returns 0x00 (0000ms, 0175ms total)
T91F8 000:263 JLINK_WriteReg(CFBP, 0x00000000)  returns 0x00 (0000ms, 0176ms total)
T91F8 000:263 JLINK_SetBPEx(Addr = 0x20000000, Type = 0xFFFFFFF2) -- CPU_ReadMem(2 bytes @ 0x20000000)  returns 0x00000001 (0000ms, 0176ms total)
T91F8 000:263 JLINK_Go() -- CPU_WriteMem(2 bytes @ 0x20000000) (0003ms, 0179ms total)
T91F8 000:266 JLINK_IsHalted() -- CPU_ReadMem(2 bytes @ 0x20000000)  returns TRUE (0003ms, 0182ms total)
T91F8 000:269 JLINK_ReadReg(R15 (PC))  returns 0x20000000 (0000ms, 0179ms total)
T91F8 000:269 JLINK_ClrBPEx(BPHandle = 0x00000001)  returns 0x00 (0000ms, 0179ms total)
T91F8 000:269 JLINK_ReadReg(R0)  returns 0x00000000 (0000ms, 0179ms total)
T91F8 000:270 JLINK_WriteReg(R0, 0x08000000)  returns 0x00 (0000ms, 0179ms total)
T91F8 000:270 JLINK_WriteReg(R1, 0x007A1200)  returns 0x00 (0000ms, 0179ms total)
T91F8 000:270 JLINK_WriteReg(R2, 0x00000001)  returns 0x00 (0000ms, 0179ms total)
T91F8 000:270 JLINK_WriteReg(R3, 0x00000000)  returns 0x00 (0000ms, 0179ms total)
T91F8 000:270 JLINK_WriteReg(R4, 0x00000000)  returns 0x00 (0000ms, 0179ms total)
T91F8 000:270 JLINK_WriteReg(R5, 0x00000000)  returns 0x00 (0000ms, 0179ms total)
T91F8 000:270 JLINK_WriteReg(R6, 0x00000000)  returns 0x00 (0000ms, 0179ms total)
T91F8 000:270 JLINK_WriteReg(R7, 0x00000000)  returns 0x00 (0000ms, 0179ms total)
T91F8 000:270 JLINK_WriteReg(R8, 0x00000000)  returns 0x00 (0000ms, 0179ms total)
T91F8 000:270 JLINK_WriteReg(R9, 0x20000160)  returns 0x00 (0000ms, 0179ms total)
T91F8 000:270 JLINK_WriteReg(R10, 0x00000000)  returns 0x00 (0000ms, 0179ms total)
T91F8 000:270 JLINK_WriteReg(R11, 0x00000000)  returns 0x00 (0000ms, 0179ms total)
T91F8 000:270 JLINK_WriteReg(R12, 0x00000000)  returns 0x00 (0000ms, 0179ms total)
T91F8 000:270 JLINK_WriteReg(R13 (SP), 0x20000800)  returns 0x00 (0000ms, 0179ms total)
T91F8 000:270 JLINK_WriteReg(R14, 0x20000001)  returns 0x00 (0000ms, 0179ms total)
T91F8 000:270 JLINK_WriteReg(R15 (PC), 0x2000007C)  returns 0x00 (0000ms, 0179ms total)
T91F8 000:270 JLINK_WriteReg(XPSR, 0x01000000)  returns 0x00 (0000ms, 0179ms total)
T91F8 000:270 JLINK_WriteReg(MSP, 0x20000800)  returns 0x00 (0000ms, 0179ms total)
T91F8 000:270 JLINK_WriteReg(PSP, 0x20000800)  returns 0x00 (0000ms, 0179ms total)
T91F8 000:270 JLINK_WriteReg(CFBP, 0x00000000)  returns 0x00 (0000ms, 0179ms total)
T91F8 000:270 JLINK_SetBPEx(Addr = 0x20000000, Type = 0xFFFFFFF2)  returns 0x00000002 (0000ms, 0179ms total)
T91F8 000:270 JLINK_Go() (0002ms, 0181ms total)
T91F8 000:272 JLINK_IsHalted()  returns FALSE (0000ms, 0181ms total)
T91F8 000:379 JLINK_IsHalted() -- CPU_ReadMem(2 bytes @ 0x20000000)  returns TRUE (0003ms, 0184ms total)
T91F8 000:382 JLINK_ReadReg(R15 (PC))  returns 0x20000000 (0000ms, 0181ms total)
T91F8 000:382 JLINK_ClrBPEx(BPHandle = 0x00000002)  returns 0x00 (0000ms, 0181ms total)
T91F8 000:382 JLINK_ReadReg(R0)  returns 0x00000000 (0000ms, 0181ms total)
T91F8 000:434 JLINK_WriteReg(R0, 0x00000001)  returns 0x00 (0000ms, 0181ms total)
T91F8 000:434 JLINK_WriteReg(R1, 0x007A1200)  returns 0x00 (0000ms, 0181ms total)
T91F8 000:434 JLINK_WriteReg(R2, 0x00000001)  returns 0x00 (0000ms, 0181ms total)
T91F8 000:434 JLINK_WriteReg(R3, 0x00000000)  returns 0x00 (0000ms, 0181ms total)
T91F8 000:434 JLINK_WriteReg(R4, 0x00000000)  returns 0x00 (0000ms, 0181ms total)
T91F8 000:434 JLINK_WriteReg(R5, 0x00000000)  returns 0x00 (0000ms, 0181ms total)
T91F8 000:434 JLINK_WriteReg(R6, 0x00000000)  returns 0x00 (0000ms, 0181ms total)
T91F8 000:434 JLINK_WriteReg(R7, 0x00000000)  returns 0x00 (0000ms, 0181ms total)
T91F8 000:434 JLINK_WriteReg(R8, 0x00000000)  returns 0x00 (0000ms, 0181ms total)
T91F8 000:434 JLINK_WriteReg(R9, 0x20000160)  returns 0x00 (0000ms, 0181ms total)
T91F8 000:434 JLINK_WriteReg(R10, 0x00000000)  returns 0x00 (0000ms, 0181ms total)
T91F8 000:434 JLINK_WriteReg(R11, 0x00000000)  returns 0x00 (0000ms, 0181ms total)
T91F8 000:434 JLINK_WriteReg(R12, 0x00000000)  returns 0x00 (0000ms, 0181ms total)
T91F8 000:434 JLINK_WriteReg(R13 (SP), 0x20000800)  returns 0x00 (0000ms, 0181ms total)
T91F8 000:434 JLINK_WriteReg(R14, 0x20000001)  returns 0x00 (0001ms, 0182ms total)
T91F8 000:435 JLINK_WriteReg(R15 (PC), 0x2000006A)  returns 0x00 (0000ms, 0182ms total)
T91F8 000:435 JLINK_WriteReg(XPSR, 0x01000000)  returns 0x00 (0000ms, 0182ms total)
T91F8 000:435 JLINK_WriteReg(MSP, 0x20000800)  returns 0x00 (0000ms, 0182ms total)
T91F8 000:435 JLINK_WriteReg(PSP, 0x20000800)  returns 0x00 (0000ms, 0182ms total)
T91F8 000:435 JLINK_WriteReg(CFBP, 0x00000000)  returns 0x00 (0000ms, 0182ms total)
T91F8 000:435 JLINK_SetBPEx(Addr = 0x20000000, Type = 0xFFFFFFF2)  returns 0x00000003 (0000ms, 0182ms total)
T91F8 000:435 JLINK_Go() (0001ms, 0183ms total)
T91F8 000:436 JLINK_IsHalted() -- CPU_ReadMem(2 bytes @ 0x20000000)  returns TRUE (0004ms, 0187ms total)
T91F8 000:440 JLINK_ReadReg(R15 (PC))  returns 0x20000000 (0000ms, 0183ms total)
T91F8 000:440 JLINK_ClrBPEx(BPHandle = 0x00000003)  returns 0x00 (0000ms, 0183ms total)
T91F8 000:440 JLINK_ReadReg(R0)  returns 0x00000000 (0000ms, 0183ms total)
T91F8 000:446 JLINK_WriteMem(0x20000000, 0x0164 Bytes, ...) -- Data:  00 BE 0A E0 0D 78 2D 06 68 40 08 24 40 00 00 D3 ... -- CPU_WriteMem(356 bytes @ 0x20000000)  returns 0x164 (0003ms, 0186ms total)
T91F8 000:449 JLINK_WriteReg(R0, 0x08000000)  returns 0x00 (0000ms, 0186ms total)
T91F8 000:449 JLINK_WriteReg(R1, 0x007A1200)  returns 0x00 (0000ms, 0186ms total)
T91F8 000:449 JLINK_WriteReg(R2, 0x00000002)  returns 0x00 (0000ms, 0186ms total)
T91F8 000:449 JLINK_WriteReg(R3, 0x00000000)  returns 0x00 (0000ms, 0186ms total)
T91F8 000:449 JLINK_WriteReg(R4, 0x00000000)  returns 0x00 (0000ms, 0186ms total)
T91F8 000:449 JLINK_WriteReg(R5, 0x00000000)  returns 0x00 (0000ms, 0186ms total)
T91F8 000:449 JLINK_WriteReg(R6, 0x00000000)  returns 0x00 (0000ms, 0186ms total)
T91F8 000:449 JLINK_WriteReg(R7, 0x00000000)  returns 0x00 (0000ms, 0186ms total)
T91F8 000:449 JLINK_WriteReg(R8, 0x00000000)  returns 0x00 (0000ms, 0186ms total)
T91F8 000:449 JLINK_WriteReg(R9, 0x20000160)  returns 0x00 (0000ms, 0186ms total)
T91F8 000:449 JLINK_WriteReg(R10, 0x00000000)  returns 0x00 (0000ms, 0186ms total)
T91F8 000:449 JLINK_WriteReg(R11, 0x00000000)  returns 0x00 (0000ms, 0186ms total)
T91F8 000:449 JLINK_WriteReg(R12, 0x00000000)  returns 0x00 (0000ms, 0186ms total)
T91F8 000:449 JLINK_WriteReg(R13 (SP), 0x20000800)  returns 0x00 (0000ms, 0186ms total)
T91F8 000:449 JLINK_WriteReg(R14, 0x20000001)  returns 0x00 (0000ms, 0186ms total)
T91F8 000:449 JLINK_WriteReg(R15 (PC), 0x20000038)  returns 0x00 (0000ms, 0186ms total)
T91F8 000:449 JLINK_WriteReg(XPSR, 0x01000000)  returns 0x00 (0000ms, 0186ms total)
T91F8 000:449 JLINK_WriteReg(MSP, 0x20000800)  returns 0x00 (0000ms, 0186ms total)
T91F8 000:449 JLINK_WriteReg(PSP, 0x20000800)  returns 0x00 (0000ms, 0186ms total)
T91F8 000:449 JLINK_WriteReg(CFBP, 0x00000000)  returns 0x00 (0000ms, 0186ms total)
T91F8 000:449 JLINK_SetBPEx(Addr = 0x20000000, Type = 0xFFFFFFF2) -- CPU_ReadMem(2 bytes @ 0x20000000)  returns 0x00000004 (0001ms, 0187ms total)
T91F8 000:450 JLINK_Go() -- CPU_WriteMem(2 bytes @ 0x20000000) (0002ms, 0189ms total)
T91F8 000:452 JLINK_IsHalted() -- CPU_ReadMem(2 bytes @ 0x20000000)  returns TRUE (0003ms, 0192ms total)
T91F8 000:455 JLINK_ReadReg(R15 (PC))  returns 0x20000000 (0000ms, 0189ms total)
T91F8 000:455 JLINK_ClrBPEx(BPHandle = 0x00000004)  returns 0x00 (0000ms, 0189ms total)
T91F8 000:455 JLINK_ReadReg(R0)  returns 0x00000000 (0000ms, 0189ms total)
T91F8 000:456 JLINK_WriteMem(0x20000164, 0x0400 Bytes, ...) -- Data:  18 08 00 20 1D 13 00 08 5D 03 00 08 5F 03 00 08 ... -- CPU_WriteMem(1024 bytes @ 0x20000164)  returns 0x400 (0006ms, 0195ms total)
T91F8 000:462 JLINK_WriteReg(R0, 0x08000000)  returns 0x00 (0000ms, 0195ms total)
T91F8 000:462 JLINK_WriteReg(R1, 0x00000400)  returns 0x00 (0000ms, 0195ms total)
T91F8 000:462 JLINK_WriteReg(R2, 0x20000164)  returns 0x00 (0000ms, 0195ms total)
T91F8 000:462 JLINK_WriteReg(R3, 0x00000000)  returns 0x00 (0000ms, 0195ms total)
T91F8 000:462 JLINK_WriteReg(R4, 0x00000000)  returns 0x00 (0000ms, 0195ms total)
T91F8 000:462 JLINK_WriteReg(R5, 0x00000000)  returns 0x00 (0000ms, 0195ms total)
T91F8 000:462 JLINK_WriteReg(R6, 0x00000000)  returns 0x00 (0000ms, 0195ms total)
T91F8 000:462 JLINK_WriteReg(R7, 0x00000000)  returns 0x00 (0000ms, 0195ms total)
T91F8 000:462 JLINK_WriteReg(R8, 0x00000000)  returns 0x00 (0000ms, 0195ms total)
T91F8 000:462 JLINK_WriteReg(R9, 0x20000160)  returns 0x00 (0000ms, 0195ms total)
T91F8 000:462 JLINK_WriteReg(R10, 0x00000000)  returns 0x00 (0000ms, 0195ms total)
T91F8 000:462 JLINK_WriteReg(R11, 0x00000000)  returns 0x00 (0000ms, 0195ms total)
T91F8 000:462 JLINK_WriteReg(R12, 0x00000000)  returns 0x00 (0000ms, 0195ms total)
T91F8 000:462 JLINK_WriteReg(R13 (SP), 0x20000800)  returns 0x00 (0000ms, 0195ms total)
T91F8 000:462 JLINK_WriteReg(R14, 0x20000001)  returns 0x00 (0000ms, 0195ms total)
T91F8 000:462 JLINK_WriteReg(R15 (PC), 0x200000F4)  returns 0x00 (0000ms, 0195ms total)
T91F8 000:462 JLINK_WriteReg(XPSR, 0x01000000)  returns 0x00 (0000ms, 0195ms total)
T91F8 000:462 JLINK_WriteReg(MSP, 0x20000800)  returns 0x00 (0000ms, 0195ms total)
T91F8 000:462 JLINK_WriteReg(PSP, 0x20000800)  returns 0x00 (0000ms, 0195ms total)
T91F8 000:462 JLINK_WriteReg(CFBP, 0x00000000)  returns 0x00 (0000ms, 0195ms total)
T91F8 000:462 JLINK_SetBPEx(Addr = 0x20000000, Type = 0xFFFFFFF2)  returns 0x00000005 (0001ms, 0196ms total)
T91F8 000:463 JLINK_Go() (0001ms, 0197ms total)
T91F8 000:464 JLINK_IsHalted()  returns FALSE (0001ms, 0198ms total)
T91F8 000:503 JLINK_IsHalted() -- CPU_ReadMem(2 bytes @ 0x20000000)  returns TRUE (0003ms, 0200ms total)
T91F8 000:506 JLINK_ReadReg(R15 (PC))  returns 0x20000000 (0000ms, 0197ms total)
T91F8 000:506 JLINK_ClrBPEx(BPHandle = 0x00000005)  returns 0x00 (0000ms, 0197ms total)
T91F8 000:506 JLINK_ReadReg(R0)  returns 0x00000000 (0000ms, 0197ms total)
T91F8 000:507 JLINK_WriteMem(0x20000164, 0x0400 Bytes, ...) -- Data:  40 F0 10 00 59 49 08 60 08 46 00 68 20 F0 03 00 ... -- CPU_WriteMem(1024 bytes @ 0x20000164)  returns 0x400 (0006ms, 0203ms total)
T91F8 000:513 JLINK_WriteReg(R0, 0x08000400)  returns 0x00 (0000ms, 0203ms total)
T91F8 000:513 JLINK_WriteReg(R1, 0x00000400)  returns 0x00 (0000ms, 0203ms total)
T91F8 000:513 JLINK_WriteReg(R2, 0x20000164)  returns 0x00 (0000ms, 0203ms total)
T91F8 000:513 JLINK_WriteReg(R3, 0x00000000)  returns 0x00 (0000ms, 0203ms total)
T91F8 000:513 JLINK_WriteReg(R4, 0x00000000)  returns 0x00 (0000ms, 0203ms total)
T91F8 000:513 JLINK_WriteReg(R5, 0x00000000)  returns 0x00 (0000ms, 0203ms total)
T91F8 000:513 JLINK_WriteReg(R6, 0x00000000)  returns 0x00 (0000ms, 0203ms total)
T91F8 000:513 JLINK_WriteReg(R7, 0x00000000)  returns 0x00 (0000ms, 0203ms total)
T91F8 000:513 JLINK_WriteReg(R8, 0x00000000)  returns 0x00 (0000ms, 0203ms total)
T91F8 000:513 JLINK_WriteReg(R9, 0x20000160)  returns 0x00 (0000ms, 0203ms total)
T91F8 000:513 JLINK_WriteReg(R10, 0x00000000)  returns 0x00 (0000ms, 0203ms total)
T91F8 000:513 JLINK_WriteReg(R11, 0x00000000)  returns 0x00 (0000ms, 0203ms total)
T91F8 000:513 JLINK_WriteReg(R12, 0x00000000)  returns 0x00 (0000ms, 0203ms total)
T91F8 000:513 JLINK_WriteReg(R13 (SP), 0x20000800)  returns 0x00 (0000ms, 0203ms total)
T91F8 000:513 JLINK_WriteReg(R14, 0x20000001)  returns 0x00 (0000ms, 0203ms total)
T91F8 000:513 JLINK_WriteReg(R15 (PC), 0x200000F4)  returns 0x00 (0000ms, 0203ms total)
T91F8 000:513 JLINK_WriteReg(XPSR, 0x01000000)  returns 0x00 (0000ms, 0203ms total)
T91F8 000:513 JLINK_WriteReg(MSP, 0x20000800)  returns 0x00 (0000ms, 0203ms total)
T91F8 000:513 JLINK_WriteReg(PSP, 0x20000800)  returns 0x00 (0000ms, 0203ms total)
T91F8 000:513 JLINK_WriteReg(CFBP, 0x00000000)  returns 0x00 (0000ms, 0203ms total)
T91F8 000:513 JLINK_SetBPEx(Addr = 0x20000000, Type = 0xFFFFFFF2)  returns 0x00000006 (0001ms, 0204ms total)
T91F8 000:514 JLINK_Go() (0001ms, 0205ms total)
T91F8 000:515 JLINK_IsHalted()  returns FALSE (0001ms, 0206ms total)
T91F8 000:517 JLINK_IsHalted()  returns FALSE (0000ms, 0205ms total)
T91F8 000:519 JLINK_IsHalted()  returns FALSE (0000ms, 0205ms total)
T91F8 000:520 JLINK_IsHalted()  returns FALSE (0001ms, 0206ms total)
T91F8 000:522 JLINK_IsHalted()  returns FALSE (0001ms, 0206ms total)
T91F8 000:524 JLINK_IsHalted()  returns FALSE (0001ms, 0206ms total)
T91F8 000:527 JLINK_IsHalted()  returns FALSE (0000ms, 0205ms total)
T91F8 000:529 JLINK_IsHalted()  returns FALSE (0000ms, 0205ms total)
T91F8 000:530 JLINK_IsHalted()  returns FALSE (0000ms, 0205ms total)
T91F8 000:532 JLINK_IsHalted()  returns FALSE (0000ms, 0205ms total)
T91F8 000:533 JLINK_IsHalted()  returns FALSE (0000ms, 0205ms total)
T91F8 000:535 JLINK_IsHalted()  returns FALSE (0000ms, 0205ms total)
T91F8 000:537 JLINK_IsHalted()  returns FALSE (0000ms, 0205ms total)
T91F8 000:564 JLINK_IsHalted() -- CPU_ReadMem(2 bytes @ 0x20000000)  returns TRUE (0003ms, 0208ms total)
T91F8 000:567 JLINK_ReadReg(R15 (PC))  returns 0x20000000 (0000ms, 0205ms total)
T91F8 000:567 JLINK_ClrBPEx(BPHandle = 0x00000006)  returns 0x00 (0000ms, 0205ms total)
T91F8 000:567 JLINK_ReadReg(R0)  returns 0x00000000 (0000ms, 0205ms total)
T91F8 000:568 JLINK_WriteMem(0x20000164, 0x0400 Bytes, ...) -- Data:  00 78 80 1C 08 5C 00 F0 30 00 20 28 0E D1 33 21 ... -- CPU_WriteMem(1024 bytes @ 0x20000164)  returns 0x400 (0006ms, 0211ms total)
T91F8 000:574 JLINK_WriteReg(R0, 0x08000800)  returns 0x00 (0000ms, 0211ms total)
T91F8 000:574 JLINK_WriteReg(R1, 0x00000400)  returns 0x00 (0000ms, 0211ms total)
T91F8 000:574 JLINK_WriteReg(R2, 0x20000164)  returns 0x00 (0000ms, 0211ms total)
T91F8 000:574 JLINK_WriteReg(R3, 0x00000000)  returns 0x00 (0000ms, 0211ms total)
T91F8 000:574 JLINK_WriteReg(R4, 0x00000000)  returns 0x00 (0000ms, 0211ms total)
T91F8 000:574 JLINK_WriteReg(R5, 0x00000000)  returns 0x00 (0000ms, 0211ms total)
T91F8 000:574 JLINK_WriteReg(R6, 0x00000000)  returns 0x00 (0000ms, 0211ms total)
T91F8 000:574 JLINK_WriteReg(R7, 0x00000000)  returns 0x00 (0000ms, 0211ms total)
T91F8 000:574 JLINK_WriteReg(R8, 0x00000000)  returns 0x00 (0000ms, 0211ms total)
T91F8 000:574 JLINK_WriteReg(R9, 0x20000160)  returns 0x00 (0000ms, 0211ms total)
T91F8 000:574 JLINK_WriteReg(R10, 0x00000000)  returns 0x00 (0000ms, 0211ms total)
T91F8 000:575 JLINK_WriteReg(R11, 0x00000000)  returns 0x00 (0000ms, 0211ms total)
T91F8 000:575 JLINK_WriteReg(R12, 0x00000000)  returns 0x00 (0000ms, 0211ms total)
T91F8 000:575 JLINK_WriteReg(R13 (SP), 0x20000800)  returns 0x00 (0000ms, 0211ms total)
T91F8 000:575 JLINK_WriteReg(R14, 0x20000001)  returns 0x00 (0000ms, 0211ms total)
T91F8 000:575 JLINK_WriteReg(R15 (PC), 0x200000F4)  returns 0x00 (0000ms, 0211ms total)
T91F8 000:575 JLINK_WriteReg(XPSR, 0x01000000)  returns 0x00 (0000ms, 0211ms total)
T91F8 000:575 JLINK_WriteReg(MSP, 0x20000800)  returns 0x00 (0000ms, 0211ms total)
T91F8 000:575 JLINK_WriteReg(PSP, 0x20000800)  returns 0x00 (0000ms, 0211ms total)
T91F8 000:575 JLINK_WriteReg(CFBP, 0x00000000)  returns 0x00 (0000ms, 0211ms total)
T91F8 000:575 JLINK_SetBPEx(Addr = 0x20000000, Type = 0xFFFFFFF2)  returns 0x00000007 (0000ms, 0211ms total)
T91F8 000:575 JLINK_Go() (0001ms, 0212ms total)
T91F8 000:576 JLINK_IsHalted()  returns FALSE (0001ms, 0213ms total)
T91F8 000:580 JLINK_IsHalted()  returns FALSE (0000ms, 0212ms total)
T91F8 000:582 JLINK_IsHalted()  returns FALSE (0000ms, 0212ms total)
T91F8 000:584 JLINK_IsHalted()  returns FALSE (0000ms, 0212ms total)
T91F8 000:586 JLINK_IsHalted()  returns FALSE (0000ms, 0212ms total)
T91F8 000:588 JLINK_IsHalted()  returns FALSE (0000ms, 0212ms total)
T91F8 000:590 JLINK_IsHalted()  returns FALSE (0000ms, 0212ms total)
T91F8 000:592 JLINK_IsHalted()  returns FALSE (0000ms, 0212ms total)
T91F8 000:594 JLINK_IsHalted()  returns FALSE (0000ms, 0212ms total)
T91F8 000:596 JLINK_IsHalted()  returns FALSE (0000ms, 0212ms total)
T91F8 000:598 JLINK_IsHalted()  returns FALSE (0000ms, 0212ms total)
T91F8 000:600 JLINK_IsHalted()  returns FALSE (0000ms, 0212ms total)
T91F8 000:603 JLINK_IsHalted()  returns FALSE (0001ms, 0213ms total)
T91F8 000:605 JLINK_IsHalted()  returns FALSE (0001ms, 0213ms total)
T91F8 000:607 JLINK_IsHalted() -- CPU_ReadMem(2 bytes @ 0x20000000)  returns TRUE (0003ms, 0215ms total)
T91F8 000:610 JLINK_ReadReg(R15 (PC))  returns 0x20000000 (0000ms, 0212ms total)
T91F8 000:610 JLINK_ClrBPEx(BPHandle = 0x00000007)  returns 0x00 (0000ms, 0212ms total)
T91F8 000:610 JLINK_ReadReg(R0)  returns 0x00000000 (0000ms, 0212ms total)
T91F8 000:611 JLINK_WriteMem(0x20000164, 0x0400 Bytes, ...) -- Data:  00 88 04 49 34 31 08 80 10 BD 00 00 00 0C 01 40 ... -- CPU_WriteMem(1024 bytes @ 0x20000164)  returns 0x400 (0006ms, 0218ms total)
T91F8 000:617 JLINK_WriteReg(R0, 0x08000C00)  returns 0x00 (0000ms, 0218ms total)
T91F8 000:617 JLINK_WriteReg(R1, 0x00000400)  returns 0x00 (0000ms, 0218ms total)
T91F8 000:617 JLINK_WriteReg(R2, 0x20000164)  returns 0x00 (0000ms, 0218ms total)
T91F8 000:617 JLINK_WriteReg(R3, 0x00000000)  returns 0x00 (0000ms, 0218ms total)
T91F8 000:617 JLINK_WriteReg(R4, 0x00000000)  returns 0x00 (0000ms, 0218ms total)
T91F8 000:617 JLINK_WriteReg(R5, 0x00000000)  returns 0x00 (0000ms, 0218ms total)
T91F8 000:617 JLINK_WriteReg(R6, 0x00000000)  returns 0x00 (0000ms, 0218ms total)
T91F8 000:617 JLINK_WriteReg(R7, 0x00000000)  returns 0x00 (0000ms, 0218ms total)
T91F8 000:617 JLINK_WriteReg(R8, 0x00000000)  returns 0x00 (0000ms, 0218ms total)
T91F8 000:617 JLINK_WriteReg(R9, 0x20000160)  returns 0x00 (0000ms, 0218ms total)
T91F8 000:617 JLINK_WriteReg(R10, 0x00000000)  returns 0x00 (0000ms, 0218ms total)
T91F8 000:617 JLINK_WriteReg(R11, 0x00000000)  returns 0x00 (0000ms, 0218ms total)
T91F8 000:617 JLINK_WriteReg(R12, 0x00000000)  returns 0x00 (0000ms, 0218ms total)
T91F8 000:617 JLINK_WriteReg(R13 (SP), 0x20000800)  returns 0x00 (0000ms, 0218ms total)
T91F8 000:617 JLINK_WriteReg(R14, 0x20000001)  returns 0x00 (0000ms, 0218ms total)
T91F8 000:617 JLINK_WriteReg(R15 (PC), 0x200000F4)  returns 0x00 (0000ms, 0218ms total)
T91F8 000:617 JLINK_WriteReg(XPSR, 0x01000000)  returns 0x00 (0000ms, 0218ms total)
T91F8 000:617 JLINK_WriteReg(MSP, 0x20000800)  returns 0x00 (0000ms, 0218ms total)
T91F8 000:617 JLINK_WriteReg(PSP, 0x20000800)  returns 0x00 (0000ms, 0218ms total)
T91F8 000:617 JLINK_WriteReg(CFBP, 0x00000000)  returns 0x00 (0000ms, 0218ms total)
T91F8 000:617 JLINK_SetBPEx(Addr = 0x20000000, Type = 0xFFFFFFF2)  returns 0x00000008 (0000ms, 0218ms total)
T91F8 000:617 JLINK_Go() (0002ms, 0220ms total)
T91F8 000:619 JLINK_IsHalted()  returns FALSE (0000ms, 0220ms total)
T91F8 000:621 JLINK_IsHalted()  returns FALSE (0000ms, 0220ms total)
T91F8 000:623 JLINK_IsHalted()  returns FALSE (0000ms, 0220ms total)
T91F8 000:625 JLINK_IsHalted()  returns FALSE (0001ms, 0221ms total)
T91F8 000:627 JLINK_IsHalted()  returns FALSE (0001ms, 0221ms total)
T91F8 000:629 JLINK_IsHalted()  returns FALSE (0001ms, 0221ms total)
T91F8 000:631 JLINK_IsHalted()  returns FALSE (0001ms, 0221ms total)
T91F8 000:635 JLINK_IsHalted()  returns FALSE (0000ms, 0220ms total)
T91F8 000:637 JLINK_IsHalted()  returns FALSE (0000ms, 0220ms total)
T91F8 000:639 JLINK_IsHalted()  returns FALSE (0000ms, 0220ms total)
T91F8 000:641 JLINK_IsHalted()  returns FALSE (0001ms, 0221ms total)
T91F8 000:643 JLINK_IsHalted()  returns FALSE (0001ms, 0221ms total)
T91F8 000:645 JLINK_IsHalted()  returns FALSE (0001ms, 0221ms total)
T91F8 000:647 JLINK_IsHalted()  returns FALSE (0001ms, 0221ms total)
T91F8 000:673 JLINK_IsHalted() -- CPU_ReadMem(2 bytes @ 0x20000000)  returns TRUE (0003ms, 0223ms total)
T91F8 000:676 JLINK_ReadReg(R15 (PC))  returns 0x20000000 (0000ms, 0220ms total)
T91F8 000:676 JLINK_ClrBPEx(BPHandle = 0x00000008)  returns 0x00 (0000ms, 0220ms total)
T91F8 000:676 JLINK_ReadReg(R0)  returns 0x00000000 (0000ms, 0220ms total)
T91F8 000:677 JLINK_WriteMem(0x20000164, 0x0400 Bytes, ...) -- Data:  10 B5 C8 21 B4 48 01 F0 A6 FF 00 20 B3 49 08 80 ... -- CPU_WriteMem(1024 bytes @ 0x20000164)  returns 0x400 (0006ms, 0226ms total)
T91F8 000:683 JLINK_WriteReg(R0, 0x08001000)  returns 0x00 (0000ms, 0226ms total)
T91F8 000:683 JLINK_WriteReg(R1, 0x00000400)  returns 0x00 (0000ms, 0226ms total)
T91F8 000:683 JLINK_WriteReg(R2, 0x20000164)  returns 0x00 (0000ms, 0226ms total)
T91F8 000:683 JLINK_WriteReg(R3, 0x00000000)  returns 0x00 (0000ms, 0226ms total)
T91F8 000:683 JLINK_WriteReg(R4, 0x00000000)  returns 0x00 (0000ms, 0226ms total)
T91F8 000:683 JLINK_WriteReg(R5, 0x00000000)  returns 0x00 (0000ms, 0226ms total)
T91F8 000:683 JLINK_WriteReg(R6, 0x00000000)  returns 0x00 (0000ms, 0226ms total)
T91F8 000:683 JLINK_WriteReg(R7, 0x00000000)  returns 0x00 (0000ms, 0226ms total)
T91F8 000:683 JLINK_WriteReg(R8, 0x00000000)  returns 0x00 (0000ms, 0226ms total)
T91F8 000:683 JLINK_WriteReg(R9, 0x20000160)  returns 0x00 (0000ms, 0226ms total)
T91F8 000:683 JLINK_WriteReg(R10, 0x00000000)  returns 0x00 (0000ms, 0226ms total)
T91F8 000:683 JLINK_WriteReg(R11, 0x00000000)  returns 0x00 (0000ms, 0226ms total)
T91F8 000:683 JLINK_WriteReg(R12, 0x00000000)  returns 0x00 (0000ms, 0226ms total)
T91F8 000:683 JLINK_WriteReg(R13 (SP), 0x20000800)  returns 0x00 (0000ms, 0226ms total)
T91F8 000:683 JLINK_WriteReg(R14, 0x20000001)  returns 0x00 (0000ms, 0226ms total)
T91F8 000:683 JLINK_WriteReg(R15 (PC), 0x200000F4)  returns 0x00 (0000ms, 0226ms total)
T91F8 000:683 JLINK_WriteReg(XPSR, 0x01000000)  returns 0x00 (0000ms, 0226ms total)
T91F8 000:683 JLINK_WriteReg(MSP, 0x20000800)  returns 0x00 (0000ms, 0226ms total)
T91F8 000:683 JLINK_WriteReg(PSP, 0x20000800)  returns 0x00 (0000ms, 0226ms total)
T91F8 000:683 JLINK_WriteReg(CFBP, 0x00000000)  returns 0x00 (0000ms, 0226ms total)
T91F8 000:683 JLINK_SetBPEx(Addr = 0x20000000, Type = 0xFFFFFFF2)  returns 0x00000009 (0001ms, 0227ms total)
T91F8 000:684 JLINK_Go() (0001ms, 0228ms total)
T91F8 000:685 JLINK_IsHalted()  returns FALSE (0001ms, 0229ms total)
T91F8 000:687 JLINK_IsHalted()  returns FALSE (0001ms, 0229ms total)
T91F8 000:689 JLINK_IsHalted()  returns FALSE (0001ms, 0229ms total)
T91F8 000:691 JLINK_IsHalted()  returns FALSE (0001ms, 0229ms total)
T91F8 000:693 JLINK_IsHalted()  returns FALSE (0001ms, 0229ms total)
T91F8 000:695 JLINK_IsHalted()  returns FALSE (0001ms, 0229ms total)
T91F8 000:697 JLINK_IsHalted()  returns FALSE (0001ms, 0229ms total)
T91F8 000:699 JLINK_IsHalted()  returns FALSE (0001ms, 0229ms total)
T91F8 000:701 JLINK_IsHalted()  returns FALSE (0001ms, 0229ms total)
T91F8 000:703 JLINK_IsHalted()  returns FALSE (0001ms, 0229ms total)
T91F8 000:705 JLINK_IsHalted()  returns FALSE (0001ms, 0229ms total)
T91F8 000:707 JLINK_IsHalted()  returns FALSE (0001ms, 0229ms total)
T91F8 000:709 JLINK_IsHalted()  returns FALSE (0001ms, 0229ms total)
T91F8 000:711 JLINK_IsHalted()  returns FALSE (0001ms, 0229ms total)
T91F8 000:713 JLINK_IsHalted()  returns FALSE (0001ms, 0229ms total)
T91F8 000:715 JLINK_IsHalted()  returns FALSE (0001ms, 0229ms total)
T91F8 000:717 JLINK_IsHalted() -- CPU_ReadMem(2 bytes @ 0x20000000)  returns TRUE (0003ms, 0231ms total)
T91F8 000:720 JLINK_ReadReg(R15 (PC))  returns 0x20000000 (0000ms, 0228ms total)
T91F8 000:720 JLINK_ClrBPEx(BPHandle = 0x00000009)  returns 0x00 (0000ms, 0228ms total)
T91F8 000:720 JLINK_ReadReg(R0)  returns 0x00000000 (0000ms, 0228ms total)
T91F8 000:721 JLINK_WriteMem(0x20000164, 0x0400 Bytes, ...) -- Data:  4F F0 E0 21 09 69 41 F0 04 01 4F F0 E0 22 11 61 ... -- CPU_WriteMem(1024 bytes @ 0x20000164)  returns 0x400 (0006ms, 0234ms total)
T91F8 000:727 JLINK_WriteReg(R0, 0x08001400)  returns 0x00 (0000ms, 0234ms total)
T91F8 000:727 JLINK_WriteReg(R1, 0x00000400)  returns 0x00 (0000ms, 0234ms total)
T91F8 000:727 JLINK_WriteReg(R2, 0x20000164)  returns 0x00 (0000ms, 0234ms total)
T91F8 000:727 JLINK_WriteReg(R3, 0x00000000)  returns 0x00 (0000ms, 0234ms total)
T91F8 000:727 JLINK_WriteReg(R4, 0x00000000)  returns 0x00 (0000ms, 0234ms total)
T91F8 000:727 JLINK_WriteReg(R5, 0x00000000)  returns 0x00 (0000ms, 0234ms total)
T91F8 000:727 JLINK_WriteReg(R6, 0x00000000)  returns 0x00 (0000ms, 0234ms total)
T91F8 000:727 JLINK_WriteReg(R7, 0x00000000)  returns 0x00 (0000ms, 0234ms total)
T91F8 000:727 JLINK_WriteReg(R8, 0x00000000)  returns 0x00 (0000ms, 0234ms total)
T91F8 000:727 JLINK_WriteReg(R9, 0x20000160)  returns 0x00 (0000ms, 0234ms total)
T91F8 000:727 JLINK_WriteReg(R10, 0x00000000)  returns 0x00 (0000ms, 0234ms total)
T91F8 000:727 JLINK_WriteReg(R11, 0x00000000)  returns 0x00 (0000ms, 0234ms total)
T91F8 000:727 JLINK_WriteReg(R12, 0x00000000)  returns 0x00 (0000ms, 0234ms total)
T91F8 000:727 JLINK_WriteReg(R13 (SP), 0x20000800)  returns 0x00 (0000ms, 0234ms total)
T91F8 000:727 JLINK_WriteReg(R14, 0x20000001)  returns 0x00 (0000ms, 0234ms total)
T91F8 000:727 JLINK_WriteReg(R15 (PC), 0x200000F4)  returns 0x00 (0000ms, 0234ms total)
T91F8 000:727 JLINK_WriteReg(XPSR, 0x01000000)  returns 0x00 (0000ms, 0234ms total)
T91F8 000:727 JLINK_WriteReg(MSP, 0x20000800)  returns 0x00 (0000ms, 0234ms total)
T91F8 000:727 JLINK_WriteReg(PSP, 0x20000800)  returns 0x00 (0000ms, 0234ms total)
T91F8 000:727 JLINK_WriteReg(CFBP, 0x00000000)  returns 0x00 (0000ms, 0234ms total)
T91F8 000:727 JLINK_SetBPEx(Addr = 0x20000000, Type = 0xFFFFFFF2)  returns 0x0000000A (0000ms, 0234ms total)
T91F8 000:727 JLINK_Go() (0002ms, 0236ms total)
T91F8 000:729 JLINK_IsHalted()  returns FALSE (0000ms, 0236ms total)
T91F8 000:731 JLINK_IsHalted()  returns FALSE (0000ms, 0236ms total)
T91F8 000:733 JLINK_IsHalted()  returns FALSE (0000ms, 0236ms total)
T91F8 000:735 JLINK_IsHalted()  returns FALSE (0001ms, 0237ms total)
T91F8 000:737 JLINK_IsHalted()  returns FALSE (0001ms, 0237ms total)
T91F8 000:739 JLINK_IsHalted()  returns FALSE (0001ms, 0237ms total)
T91F8 000:741 JLINK_IsHalted()  returns FALSE (0001ms, 0237ms total)
T91F8 000:743 JLINK_IsHalted()  returns FALSE (0001ms, 0237ms total)
T91F8 000:745 JLINK_IsHalted()  returns FALSE (0001ms, 0237ms total)
T91F8 000:747 JLINK_IsHalted()  returns FALSE (0001ms, 0237ms total)
T91F8 000:749 JLINK_IsHalted()  returns FALSE (0001ms, 0237ms total)
T91F8 000:751 JLINK_IsHalted()  returns FALSE (0001ms, 0237ms total)
T91F8 000:753 JLINK_IsHalted()  returns FALSE (0001ms, 0237ms total)
T91F8 000:756 JLINK_IsHalted()  returns FALSE (0000ms, 0236ms total)
T91F8 000:786 JLINK_IsHalted() -- CPU_ReadMem(2 bytes @ 0x20000000)  returns TRUE (0003ms, 0239ms total)
T91F8 000:789 JLINK_ReadReg(R15 (PC))  returns 0x20000000 (0000ms, 0236ms total)
T91F8 000:789 JLINK_ClrBPEx(BPHandle = 0x0000000A)  returns 0x00 (0000ms, 0236ms total)
T91F8 000:789 JLINK_ReadReg(R0)  returns 0x00000000 (0000ms, 0236ms total)
T91F8 000:789 JLINK_WriteMem(0x20000164, 0x0400 Bytes, ...) -- Data:  06 FA 05 F4 A1 43 41 F0 70 61 06 E0 46 0D 36 01 ... -- CPU_WriteMem(1024 bytes @ 0x20000164)  returns 0x400 (0006ms, 0242ms total)
T91F8 000:795 JLINK_WriteReg(R0, 0x08001800)  returns 0x00 (0000ms, 0242ms total)
T91F8 000:795 JLINK_WriteReg(R1, 0x00000400)  returns 0x00 (0000ms, 0242ms total)
T91F8 000:795 JLINK_WriteReg(R2, 0x20000164)  returns 0x00 (0000ms, 0242ms total)
T91F8 000:795 JLINK_WriteReg(R3, 0x00000000)  returns 0x00 (0001ms, 0243ms total)
T91F8 000:796 JLINK_WriteReg(R4, 0x00000000)  returns 0x00 (0000ms, 0243ms total)
T91F8 000:796 JLINK_WriteReg(R5, 0x00000000)  returns 0x00 (0000ms, 0243ms total)
T91F8 000:796 JLINK_WriteReg(R6, 0x00000000)  returns 0x00 (0000ms, 0243ms total)
T91F8 000:796 JLINK_WriteReg(R7, 0x00000000)  returns 0x00 (0000ms, 0243ms total)
T91F8 000:796 JLINK_WriteReg(R8, 0x00000000)  returns 0x00 (0000ms, 0243ms total)
T91F8 000:796 JLINK_WriteReg(R9, 0x20000160)  returns 0x00 (0000ms, 0243ms total)
T91F8 000:796 JLINK_WriteReg(R10, 0x00000000)  returns 0x00 (0000ms, 0243ms total)
T91F8 000:796 JLINK_WriteReg(R11, 0x00000000)  returns 0x00 (0000ms, 0243ms total)
T91F8 000:796 JLINK_WriteReg(R12, 0x00000000)  returns 0x00 (0000ms, 0243ms total)
T91F8 000:796 JLINK_WriteReg(R13 (SP), 0x20000800)  returns 0x00 (0000ms, 0243ms total)
T91F8 000:796 JLINK_WriteReg(R14, 0x20000001)  returns 0x00 (0000ms, 0243ms total)
T91F8 000:796 JLINK_WriteReg(R15 (PC), 0x200000F4)  returns 0x00 (0000ms, 0243ms total)
T91F8 000:796 JLINK_WriteReg(XPSR, 0x01000000)  returns 0x00 (0000ms, 0243ms total)
T91F8 000:796 JLINK_WriteReg(MSP, 0x20000800)  returns 0x00 (0000ms, 0243ms total)
T91F8 000:796 JLINK_WriteReg(PSP, 0x20000800)  returns 0x00 (0000ms, 0243ms total)
T91F8 000:796 JLINK_WriteReg(CFBP, 0x00000000)  returns 0x00 (0000ms, 0243ms total)
T91F8 000:796 JLINK_SetBPEx(Addr = 0x20000000, Type = 0xFFFFFFF2)  returns 0x0000000B (0000ms, 0243ms total)
T91F8 000:796 JLINK_Go() (0001ms, 0244ms total)
T91F8 000:797 JLINK_IsHalted()  returns FALSE (0001ms, 0245ms total)
T91F8 000:801 JLINK_IsHalted()  returns FALSE (0001ms, 0245ms total)
T91F8 000:803 JLINK_IsHalted()  returns FALSE (0001ms, 0245ms total)
T91F8 000:805 JLINK_IsHalted()  returns FALSE (0001ms, 0245ms total)
T91F8 000:808 JLINK_IsHalted()  returns FALSE (0000ms, 0244ms total)
T91F8 000:810 JLINK_IsHalted()  returns FALSE (0000ms, 0244ms total)
T91F8 000:812 JLINK_IsHalted()  returns FALSE (0000ms, 0244ms total)
T91F8 000:814 JLINK_IsHalted()  returns FALSE (0000ms, 0244ms total)
T91F8 000:816 JLINK_IsHalted()  returns FALSE (0000ms, 0244ms total)
T91F8 000:818 JLINK_IsHalted()  returns FALSE (0000ms, 0244ms total)
T91F8 000:820 JLINK_IsHalted()  returns FALSE (0000ms, 0244ms total)
T91F8 000:822 JLINK_IsHalted()  returns FALSE (0001ms, 0245ms total)
T91F8 000:824 JLINK_IsHalted()  returns FALSE (0001ms, 0245ms total)
T91F8 000:826 JLINK_IsHalted()  returns FALSE (0001ms, 0245ms total)
T91F8 000:828 JLINK_IsHalted() -- CPU_ReadMem(2 bytes @ 0x20000000)  returns TRUE (0003ms, 0247ms total)
T91F8 000:831 JLINK_ReadReg(R15 (PC))  returns 0x20000000 (0000ms, 0244ms total)
T91F8 000:831 JLINK_ClrBPEx(BPHandle = 0x0000000B)  returns 0x00 (0000ms, 0244ms total)
T91F8 000:831 JLINK_ReadReg(R0)  returns 0x00000000 (0000ms, 0244ms total)
T91F8 000:832 JLINK_WriteMem(0x20000164, 0x0400 Bytes, ...) -- Data:  83 88 84 8B 4F F6 8F 75 2C 40 4F F6 FC 75 2C 40 ... -- CPU_WriteMem(1024 bytes @ 0x20000164)  returns 0x400 (0006ms, 0250ms total)
T91F8 000:838 JLINK_WriteReg(R0, 0x08001C00)  returns 0x00 (0000ms, 0250ms total)
T91F8 000:838 JLINK_WriteReg(R1, 0x00000400)  returns 0x00 (0000ms, 0250ms total)
T91F8 000:838 JLINK_WriteReg(R2, 0x20000164)  returns 0x00 (0000ms, 0250ms total)
T91F8 000:838 JLINK_WriteReg(R3, 0x00000000)  returns 0x00 (0000ms, 0250ms total)
T91F8 000:838 JLINK_WriteReg(R4, 0x00000000)  returns 0x00 (0000ms, 0250ms total)
T91F8 000:838 JLINK_WriteReg(R5, 0x00000000)  returns 0x00 (0000ms, 0250ms total)
T91F8 000:838 JLINK_WriteReg(R6, 0x00000000)  returns 0x00 (0000ms, 0250ms total)
T91F8 000:838 JLINK_WriteReg(R7, 0x00000000)  returns 0x00 (0000ms, 0250ms total)
T91F8 000:838 JLINK_WriteReg(R8, 0x00000000)  returns 0x00 (0000ms, 0250ms total)
T91F8 000:838 JLINK_WriteReg(R9, 0x20000160)  returns 0x00 (0000ms, 0250ms total)
T91F8 000:838 JLINK_WriteReg(R10, 0x00000000)  returns 0x00 (0000ms, 0250ms total)
T91F8 000:838 JLINK_WriteReg(R11, 0x00000000)  returns 0x00 (0000ms, 0250ms total)
T91F8 000:838 JLINK_WriteReg(R12, 0x00000000)  returns 0x00 (0000ms, 0250ms total)
T91F8 000:838 JLINK_WriteReg(R13 (SP), 0x20000800)  returns 0x00 (0000ms, 0250ms total)
T91F8 000:838 JLINK_WriteReg(R14, 0x20000001)  returns 0x00 (0000ms, 0250ms total)
T91F8 000:838 JLINK_WriteReg(R15 (PC), 0x200000F4)  returns 0x00 (0000ms, 0250ms total)
T91F8 000:838 JLINK_WriteReg(XPSR, 0x01000000)  returns 0x00 (0000ms, 0250ms total)
T91F8 000:838 JLINK_WriteReg(MSP, 0x20000800)  returns 0x00 (0000ms, 0250ms total)
T91F8 000:838 JLINK_WriteReg(PSP, 0x20000800)  returns 0x00 (0000ms, 0250ms total)
T91F8 000:838 JLINK_WriteReg(CFBP, 0x00000000)  returns 0x00 (0000ms, 0250ms total)
T91F8 000:838 JLINK_SetBPEx(Addr = 0x20000000, Type = 0xFFFFFFF2)  returns 0x0000000C (0000ms, 0250ms total)
T91F8 000:838 JLINK_Go() (0002ms, 0252ms total)
T91F8 000:840 JLINK_IsHalted()  returns FALSE (0000ms, 0252ms total)
T91F8 000:842 JLINK_IsHalted()  returns FALSE (0000ms, 0252ms total)
T91F8 000:843 JLINK_IsHalted()  returns FALSE (0000ms, 0252ms total)
T91F8 000:845 JLINK_IsHalted()  returns FALSE (0001ms, 0253ms total)
T91F8 000:847 JLINK_IsHalted()  returns FALSE (0000ms, 0252ms total)
T91F8 000:849 JLINK_IsHalted()  returns FALSE (0000ms, 0252ms total)
T91F8 000:850 JLINK_IsHalted()  returns FALSE (0000ms, 0252ms total)
T91F8 000:852 JLINK_IsHalted()  returns FALSE (0000ms, 0252ms total)
T91F8 000:856 JLINK_IsHalted()  returns FALSE (0000ms, 0252ms total)
T91F8 000:858 JLINK_IsHalted()  returns FALSE (0000ms, 0252ms total)
T91F8 000:860 JLINK_IsHalted()  returns FALSE (0000ms, 0252ms total)
T91F8 000:862 JLINK_IsHalted()  returns FALSE (0000ms, 0252ms total)
T91F8 000:864 JLINK_IsHalted()  returns FALSE (0000ms, 0252ms total)
T91F8 000:866 JLINK_IsHalted()  returns FALSE (0000ms, 0252ms total)
T91F8 000:868 JLINK_IsHalted()  returns FALSE (0000ms, 0252ms total)
T91F8 000:895 JLINK_IsHalted() -- CPU_ReadMem(2 bytes @ 0x20000000)  returns TRUE (0003ms, 0255ms total)
T91F8 000:898 JLINK_ReadReg(R15 (PC))  returns 0x20000000 (0000ms, 0252ms total)
T91F8 000:898 JLINK_ClrBPEx(BPHandle = 0x0000000C)  returns 0x00 (0000ms, 0252ms total)
T91F8 000:898 JLINK_ReadReg(R0)  returns 0x00000000 (0000ms, 0252ms total)
T91F8 000:899 JLINK_WriteMem(0x20000164, 0x0400 Bytes, ...) -- Data:  28 46 FF F7 A6 FE E1 88 28 46 FF F7 95 FE 70 BD ... -- CPU_WriteMem(1024 bytes @ 0x20000164)  returns 0x400 (0006ms, 0258ms total)
T91F8 000:905 JLINK_WriteReg(R0, 0x08002000)  returns 0x00 (0000ms, 0258ms total)
T91F8 000:905 JLINK_WriteReg(R1, 0x00000400)  returns 0x00 (0000ms, 0258ms total)
T91F8 000:905 JLINK_WriteReg(R2, 0x20000164)  returns 0x00 (0000ms, 0258ms total)
T91F8 000:905 JLINK_WriteReg(R3, 0x00000000)  returns 0x00 (0000ms, 0258ms total)
T91F8 000:905 JLINK_WriteReg(R4, 0x00000000)  returns 0x00 (0001ms, 0259ms total)
T91F8 000:906 JLINK_WriteReg(R5, 0x00000000)  returns 0x00 (0000ms, 0259ms total)
T91F8 000:906 JLINK_WriteReg(R6, 0x00000000)  returns 0x00 (0000ms, 0259ms total)
T91F8 000:906 JLINK_WriteReg(R7, 0x00000000)  returns 0x00 (0000ms, 0259ms total)
T91F8 000:906 JLINK_WriteReg(R8, 0x00000000)  returns 0x00 (0000ms, 0259ms total)
T91F8 000:906 JLINK_WriteReg(R9, 0x20000160)  returns 0x00 (0000ms, 0259ms total)
T91F8 000:906 JLINK_WriteReg(R10, 0x00000000)  returns 0x00 (0000ms, 0259ms total)
T91F8 000:906 JLINK_WriteReg(R11, 0x00000000)  returns 0x00 (0000ms, 0259ms total)
T91F8 000:906 JLINK_WriteReg(R12, 0x00000000)  returns 0x00 (0000ms, 0259ms total)
T91F8 000:906 JLINK_WriteReg(R13 (SP), 0x20000800)  returns 0x00 (0000ms, 0259ms total)
T91F8 000:906 JLINK_WriteReg(R14, 0x20000001)  returns 0x00 (0000ms, 0259ms total)
T91F8 000:906 JLINK_WriteReg(R15 (PC), 0x200000F4)  returns 0x00 (0000ms, 0259ms total)
T91F8 000:906 JLINK_WriteReg(XPSR, 0x01000000)  returns 0x00 (0000ms, 0259ms total)
T91F8 000:906 JLINK_WriteReg(MSP, 0x20000800)  returns 0x00 (0000ms, 0259ms total)
T91F8 000:906 JLINK_WriteReg(PSP, 0x20000800)  returns 0x00 (0000ms, 0259ms total)
T91F8 000:906 JLINK_WriteReg(CFBP, 0x00000000)  returns 0x00 (0000ms, 0259ms total)
T91F8 000:906 JLINK_SetBPEx(Addr = 0x20000000, Type = 0xFFFFFFF2)  returns 0x0000000D (0000ms, 0259ms total)
T91F8 000:906 JLINK_Go() (0001ms, 0260ms total)
T91F8 000:907 JLINK_IsHalted()  returns FALSE (0001ms, 0261ms total)
T91F8 000:909 JLINK_IsHalted()  returns FALSE (0000ms, 0260ms total)
T91F8 000:911 JLINK_IsHalted()  returns FALSE (0000ms, 0260ms total)
T91F8 000:912 JLINK_IsHalted()  returns FALSE (0001ms, 0261ms total)
T91F8 000:914 JLINK_IsHalted()  returns FALSE (0001ms, 0261ms total)
T91F8 000:916 JLINK_IsHalted()  returns FALSE (0001ms, 0261ms total)
T91F8 000:918 JLINK_IsHalted()  returns FALSE (0001ms, 0261ms total)
T91F8 000:920 JLINK_IsHalted()  returns FALSE (0001ms, 0261ms total)
T91F8 000:922 JLINK_IsHalted()  returns FALSE (0000ms, 0260ms total)
T91F8 000:924 JLINK_IsHalted()  returns FALSE (0000ms, 0260ms total)
T91F8 000:926 JLINK_IsHalted()  returns FALSE (0000ms, 0260ms total)
T91F8 000:927 JLINK_IsHalted()  returns FALSE (0000ms, 0260ms total)
T91F8 000:929 JLINK_IsHalted()  returns FALSE (0000ms, 0260ms total)
T91F8 000:930 JLINK_IsHalted()  returns FALSE (0000ms, 0260ms total)
T91F8 000:932 JLINK_IsHalted()  returns FALSE (0000ms, 0260ms total)
T91F8 000:936 JLINK_IsHalted()  returns FALSE (0000ms, 0260ms total)
T91F8 000:938 JLINK_IsHalted() -- CPU_ReadMem(2 bytes @ 0x20000000)  returns TRUE (0003ms, 0263ms total)
T91F8 000:941 JLINK_ReadReg(R15 (PC))  returns 0x20000000 (0000ms, 0260ms total)
T91F8 000:941 JLINK_ClrBPEx(BPHandle = 0x0000000D)  returns 0x00 (0000ms, 0260ms total)
T91F8 000:941 JLINK_ReadReg(R0)  returns 0x00000000 (0000ms, 0260ms total)
T91F8 000:942 JLINK_WriteMem(0x20000164, 0x0400 Bytes, ...) -- Data:  70 47 0A 46 00 21 81 8B 4F F6 FF 33 19 40 4F F6 ... -- CPU_WriteMem(1024 bytes @ 0x20000164)  returns 0x400 (0006ms, 0266ms total)
T91F8 000:948 JLINK_WriteReg(R0, 0x08002400)  returns 0x00 (0000ms, 0266ms total)
T91F8 000:948 JLINK_WriteReg(R1, 0x00000400)  returns 0x00 (0000ms, 0266ms total)
T91F8 000:948 JLINK_WriteReg(R2, 0x20000164)  returns 0x00 (0000ms, 0266ms total)
T91F8 000:948 JLINK_WriteReg(R3, 0x00000000)  returns 0x00 (0000ms, 0266ms total)
T91F8 000:948 JLINK_WriteReg(R4, 0x00000000)  returns 0x00 (0000ms, 0266ms total)
T91F8 000:948 JLINK_WriteReg(R5, 0x00000000)  returns 0x00 (0000ms, 0266ms total)
T91F8 000:948 JLINK_WriteReg(R6, 0x00000000)  returns 0x00 (0000ms, 0266ms total)
T91F8 000:948 JLINK_WriteReg(R7, 0x00000000)  returns 0x00 (0000ms, 0266ms total)
T91F8 000:948 JLINK_WriteReg(R8, 0x00000000)  returns 0x00 (0000ms, 0266ms total)
T91F8 000:948 JLINK_WriteReg(R9, 0x20000160)  returns 0x00 (0000ms, 0266ms total)
T91F8 000:948 JLINK_WriteReg(R10, 0x00000000)  returns 0x00 (0000ms, 0266ms total)
T91F8 000:948 JLINK_WriteReg(R11, 0x00000000)  returns 0x00 (0000ms, 0266ms total)
T91F8 000:948 JLINK_WriteReg(R12, 0x00000000)  returns 0x00 (0000ms, 0266ms total)
T91F8 000:948 JLINK_WriteReg(R13 (SP), 0x20000800)  returns 0x00 (0000ms, 0266ms total)
T91F8 000:948 JLINK_WriteReg(R14, 0x20000001)  returns 0x00 (0000ms, 0266ms total)
T91F8 000:948 JLINK_WriteReg(R15 (PC), 0x200000F4)  returns 0x00 (0000ms, 0266ms total)
T91F8 000:948 JLINK_WriteReg(XPSR, 0x01000000)  returns 0x00 (0000ms, 0266ms total)
T91F8 000:948 JLINK_WriteReg(MSP, 0x20000800)  returns 0x00 (0000ms, 0266ms total)
T91F8 000:948 JLINK_WriteReg(PSP, 0x20000800)  returns 0x00 (0000ms, 0266ms total)
T91F8 000:948 JLINK_WriteReg(CFBP, 0x00000000)  returns 0x00 (0000ms, 0266ms total)
T91F8 000:948 JLINK_SetBPEx(Addr = 0x20000000, Type = 0xFFFFFFF2)  returns 0x0000000E (0000ms, 0266ms total)
T91F8 000:948 JLINK_Go() (0001ms, 0267ms total)
T91F8 000:949 JLINK_IsHalted()  returns FALSE (0001ms, 0268ms total)
T91F8 000:951 JLINK_IsHalted()  returns FALSE (0000ms, 0267ms total)
T91F8 000:953 JLINK_IsHalted()  returns FALSE (0000ms, 0267ms total)
T91F8 000:954 JLINK_IsHalted()  returns FALSE (0001ms, 0268ms total)
T91F8 000:956 JLINK_IsHalted()  returns FALSE (0001ms, 0268ms total)
T91F8 000:959 JLINK_IsHalted()  returns FALSE (0000ms, 0267ms total)
T91F8 000:961 JLINK_IsHalted()  returns FALSE (0000ms, 0267ms total)
T91F8 000:963 JLINK_IsHalted()  returns FALSE (0000ms, 0267ms total)
T91F8 000:965 JLINK_IsHalted()  returns FALSE (0001ms, 0268ms total)
T91F8 000:967 JLINK_IsHalted()  returns FALSE (0000ms, 0267ms total)
T91F8 000:969 JLINK_IsHalted()  returns FALSE (0000ms, 0267ms total)
T91F8 000:971 JLINK_IsHalted()  returns FALSE (0000ms, 0267ms total)
T91F8 000:973 JLINK_IsHalted()  returns FALSE (0000ms, 0267ms total)
T91F8 000:975 JLINK_IsHalted()  returns FALSE (0000ms, 0267ms total)
T91F8 000:977 JLINK_IsHalted()  returns FALSE (0000ms, 0267ms total)
T91F8 000:979 JLINK_IsHalted()  returns FALSE (0000ms, 0267ms total)
T91F8 001:014 JLINK_IsHalted() -- CPU_ReadMem(2 bytes @ 0x20000000)  returns TRUE (0004ms, 0271ms total)
T91F8 001:018 JLINK_ReadReg(R15 (PC))  returns 0x20000000 (0000ms, 0267ms total)
T91F8 001:018 JLINK_ClrBPEx(BPHandle = 0x0000000E)  returns 0x00 (0000ms, 0267ms total)
T91F8 001:018 JLINK_ReadReg(R0)  returns 0x00000000 (0000ms, 0267ms total)
T91F8 001:019 JLINK_WriteMem(0x20000164, 0x0400 Bytes, ...) -- Data:  07 00 04 43 08 E0 32 20 00 EB 09 10 64 21 B0 FB ... -- CPU_WriteMem(1024 bytes @ 0x20000164)  returns 0x400 (0006ms, 0273ms total)
T91F8 001:025 JLINK_WriteReg(R0, 0x08002800)  returns 0x00 (0000ms, 0273ms total)
T91F8 001:025 JLINK_WriteReg(R1, 0x00000400)  returns 0x00 (0000ms, 0273ms total)
T91F8 001:025 JLINK_WriteReg(R2, 0x20000164)  returns 0x00 (0000ms, 0273ms total)
T91F8 001:025 JLINK_WriteReg(R3, 0x00000000)  returns 0x00 (0000ms, 0273ms total)
T91F8 001:025 JLINK_WriteReg(R4, 0x00000000)  returns 0x00 (0000ms, 0273ms total)
T91F8 001:025 JLINK_WriteReg(R5, 0x00000000)  returns 0x00 (0000ms, 0273ms total)
T91F8 001:025 JLINK_WriteReg(R6, 0x00000000)  returns 0x00 (0000ms, 0273ms total)
T91F8 001:025 JLINK_WriteReg(R7, 0x00000000)  returns 0x00 (0000ms, 0273ms total)
T91F8 001:025 JLINK_WriteReg(R8, 0x00000000)  returns 0x00 (0000ms, 0273ms total)
